Circuit: * D:\Elektronik\LTSpice\Projekte\masterarbeit\stromspiegel\stromspiegel.asc

Direct Newton iteration for .op point succeeded.
Semiconductor Device Operating Points:
                        --- BSIM4 MOSFETS ---
Name:      m2          m1
Model:    nmos        nmos
Id:      8.53e-06    8.53e-06
Vgs:     8.00e-01    8.00e-01
Vds:     8.00e-01    8.00e-01
Vbs:     0.00e+00    0.00e+00
Vth:     5.82e-01    5.82e-01
Vdsat:   1.84e-01    1.84e-01
Gm:      5.29e-05    5.29e-05
Gds:     8.44e-06    8.44e-06
Gmb      1.21e-05    1.21e-05
Cbd:     1.81e-17    1.81e-17
Cbs:     3.52e-17    3.52e-17



Date: Sat Apr 09 18:25:48 2016
Total elapsed time: 0.055 seconds.

tnom = 27
temp = 27
method = trap
totiter = 4
traniter = 0
tranpoints = 0
accept = 0
rejected = 0
matrix size = 11
fillins = 0
solver = Normal
Matrix Compiler1: 744 bytes object code size
Matrix Compiler2: 963 bytes object code size

